Element, I1_1, Ang1_1, I1_2, Ang1_2, I1_3, Ang1_3, I1_4, Ang1_4, Iresid1, AngResid1, I2_1, Ang2_1, I2_2, Ang2_2, I2_3, Ang2_3, I2_4, Ang2_4, Iresid2, AngResid2
Vsource.SOURCE,    4.31927,   178.15,    3.38881,    47.24,    3.31201,   -52.50,          0,     0.00, 3.21555E-013,    45.00,    4.31927,    -1.85,    3.38881,  -132.76,    3.31201,   127.50,          0,     0.00, 3.21555E-013,  -135.00
Transformer.TR1,    4.31927,    -1.85,    3.38881,  -132.76,    3.31201,   127.50,          0,     0.00, 2.84217E-014,     0.00,    116.441,   147.49,    122.031,    27.27,    63.2165,   -91.50,    55.9726,   -98.85, 0.000142703,    69.84
Reactor.R1,    116.441,   -32.51,    122.031,  -152.73,    63.2165,    88.50,          0,     0.00,    55.9727,   -98.85,    116.441,   147.49,    122.031,    27.27,    63.2165,   -91.50,          0,     0.00,    55.9727,    81.15
Line.LINE1,    87.4542,   -32.55,    122.031,  -152.73,    63.2165,    88.50,          0,     0.00,    51.7439,  -129.75,    87.4542,   147.45,    122.031,    27.27,    63.2165,   -91.50,          0,     0.00,    51.7439,    50.25
Line.LINE2,    87.4542,   -32.55,    122.031,  -152.73,    63.2165,    88.50,          0,     0.00,    51.7439,  -129.75,    87.4542,   147.45,    122.031,    27.27,    63.2165,   -91.50,          0,     0.00,    51.7439,    50.25
Line.LINE3,    87.4542,   -32.55,    122.031,  -152.73,    63.2165,    88.50,          0,     0.00,    51.7439,  -129.75,    87.4542,   147.45,    122.031,    27.27,    63.2165,   -91.50,          0,     0.00,    51.7439,    50.25
Line.LINE4,    87.4542,   -32.55,    122.031,  -152.73,    63.2165,    88.50,          0,     0.00,    51.7439,  -129.75,    87.4542,   147.45,    122.031,    27.27,    63.2165,   -91.50,          0,     0.00,    51.7439,    50.25
Line.LINE5,    87.4542,   -32.55,    122.031,  -152.73,    63.2165,    88.50,          0,     0.00,    51.7439,  -129.75,    87.4542,   147.45,    122.031,    27.27,    63.2165,   -91.50,          0,     0.00,    51.7439,    50.25
Line.LINE6,    87.4542,   -32.55,    122.031,  -152.73,    63.2165,    88.50,          0,     0.00,    51.7439,  -129.75,    87.4542,   147.45,    122.031,    27.27,    63.2165,   -91.50,          0,     0.00,    51.7439,    50.25
Line.LINE7,    87.4542,   -32.55,    122.031,  -152.73,    63.2165,    88.50,          0,     0.00,    51.7439,  -129.75,    87.4542,   147.45,    122.031,    27.27,    63.2165,   -91.50,          0,     0.00,    51.7439,    50.25
Line.LINE8,    87.4542,   -32.55,    122.031,  -152.73,    63.2165,    88.50,          0,     0.00,    51.7439,  -129.75,    87.4542,   147.45,    122.031,    27.27,    63.2165,   -91.50,          0,     0.00,    51.7439,    50.25
Line.LINE9,    87.4542,   -32.55,    122.031,  -152.73,    63.2165,    88.50,          0,     0.00,    51.7439,  -129.75,    87.4542,   147.45,    122.031,    27.27,    63.2165,   -91.50,          0,     0.00,    51.7439,    50.25
Line.LINE10,    87.4542,   -32.55,    122.031,  -152.73,    63.2165,    88.50,          0,     0.00,    51.7439,  -129.75,    87.4542,   147.45,    122.031,    27.27,    63.2165,   -91.50,          0,     0.00,    51.7439,    50.25
Line.LINE11,    87.4542,   -32.55,    122.031,  -152.73,    63.2165,    88.50,          0,     0.00,    51.7439,  -129.75,    87.4542,   147.45,    122.031,    27.27,    63.2165,   -91.50,          0,     0.00,    51.7439,    50.25
Line.LINE12,    87.4542,   -32.55,    122.031,  -152.73,    63.2165,    88.50,          0,     0.00,    51.7439,  -129.75,    87.4542,   147.45,    122.031,    27.27,    63.2165,   -91.50,          0,     0.00,    51.7439,    50.25
Line.LINE13,    87.4542,   -32.55,    122.031,  -152.73,    63.2165,    88.50,          0,     0.00,    51.7439,  -129.75,    87.4542,   147.45,    122.031,    27.27,    63.2165,   -91.50,          0,     0.00,    51.7439,    50.25
Line.LINE14,    87.4542,   -32.55,    122.031,  -152.73,    63.2165,    88.50,          0,     0.00,    51.7439,  -129.75,    87.4542,   147.45,    122.031,    27.27,    63.2165,   -91.50,          0,     0.00,    51.7439,    50.25
Line.LINE15,    87.4542,   -32.55,     92.879,  -152.74,    63.2165,    88.50,          0,     0.00,    27.3601,  -105.24,    87.4542,   147.45,     92.879,    27.26,    63.2165,   -91.50,          0,     0.00,    27.3601,    74.76
Line.LINE16,    87.4542,   -32.55,     92.879,  -152.74,    63.2165,    88.50,          0,     0.00,    27.3601,  -105.24,    87.4542,   147.45,     92.879,    27.26,    63.2165,   -91.50,          0,     0.00,    27.3601,    74.76
Line.LINE17,    87.4542,   -32.55,    61.0619,  -152.77,    63.2165,    88.50,          0,     0.00,    24.1602,   -29.24,    87.4542,   147.45,    61.0619,    27.23,    63.2165,   -91.50,          0,     0.00,    24.1602,   150.76
Line.LINE18,    87.4542,   -32.55,    61.0619,  -152.77,    63.2165,    88.50,          0,     0.00,    24.1602,   -29.24,    87.4542,   147.45,    61.0619,    27.23,    63.2165,   -91.50,          0,     0.00,    24.1602,   150.76
Line.LINE19,    87.4542,   -32.55,    61.0619,  -152.77,    63.2165,    88.50,          0,     0.00,    24.1602,   -29.24,    87.4542,   147.45,    61.0619,    27.23,    63.2165,   -91.50,          0,     0.00,    24.1602,   150.76
Line.LINE20,    87.4542,   -32.55,    61.0619,  -152.77,    63.2165,    88.50,          0,     0.00,    24.1602,   -29.24,    87.4542,   147.45,    61.0619,    27.23,    63.2165,   -91.50,          0,     0.00,    24.1602,   150.76
Line.LINE21,    87.4542,   -32.55,    61.0619,  -152.77,    63.2165,    88.50,          0,     0.00,    24.1602,   -29.24,    87.4542,   147.45,    61.0619,    27.23,    63.2165,   -91.50,          0,     0.00,    24.1602,   150.76
Line.LINE22,    87.4542,   -32.55,    61.0619,  -152.77,    63.2165,    88.50,          0,     0.00,    24.1602,   -29.24,    87.4542,   147.45,    61.0619,    27.23,    63.2165,   -91.50,          0,     0.00,    24.1602,   150.76
Line.LINE23,    87.4542,   -32.55,    61.0619,  -152.77,    63.2165,    88.50,          0,     0.00,    24.1602,   -29.24,    87.4542,   147.45,    61.0619,    27.23,    63.2165,   -91.50,          0,     0.00,    24.1602,   150.76
Line.LINE24,    87.4542,   -32.55,    61.0619,  -152.77,    63.2165,    88.50,          0,     0.00,    24.1602,   -29.24,    87.4542,   147.45,    61.0619,    27.23,    63.2165,   -91.50,          0,     0.00,    24.1602,   150.76
Line.LINE25,    87.4542,   -32.55,    61.0619,  -152.77,    63.2165,    88.50,          0,     0.00,    24.1602,   -29.24,    87.4542,   147.45,    61.0619,    27.23,    63.2165,   -91.50,          0,     0.00,    24.1602,   150.76
Line.LINE26,    58.3163,   -32.56,    31.8656,  -152.78,    63.2165,    88.50,          0,     0.00,    28.3163,    37.48,    58.3163,   147.44,    31.8656,    27.22,    63.2165,   -91.50,          0,     0.00,    28.3163,  -142.52
Line.LINE27,    58.3163,   -32.56,    31.8656,  -152.78,    63.2165,    88.50,          0,     0.00,    28.3163,    37.48,    58.3163,   147.44,    31.8656,    27.22,    63.2165,   -91.50,          0,     0.00,    28.3163,  -142.52
Line.LINE28,    58.3163,   -32.56,    31.8656,  -152.78,    63.2165,    88.50,          0,     0.00,    28.3163,    37.48,    58.3163,   147.44,    31.8656,    27.22,    63.2165,   -91.50,          0,     0.00,    28.3163,  -142.52
Line.LINE29,    58.3163,   -32.56,    31.8656,  -152.78,    63.2165,    88.50,          0,     0.00,    28.3163,    37.48,    58.3163,   147.44,    31.8656,    27.22,    63.2165,   -91.50,          0,     0.00,    28.3163,  -142.52
Line.LINE30,    29.1619,   -32.57,    31.8656,  -152.78,    63.2165,    88.50,          0,     0.00,    32.9846,    93.65,    29.1619,   147.43,    31.8656,    27.22,    63.2165,   -91.50,          0,     0.00,    32.9846,   -86.35
Line.LINE31,    29.1619,   -32.57,    31.8656,  -152.78,    63.2165,    88.50,          0,     0.00,    32.9846,    93.65,    29.1619,   147.43,    31.8656,    27.22,    63.2165,   -91.50,          0,     0.00,    32.9846,   -86.35
Line.LINE32,    29.1619,   -32.57,    31.8656,  -152.78,    31.6135,    88.49,          0,     0.00,    3.21379,   155.65,    29.1619,   147.43,    31.8656,    27.22,    31.6135,   -91.51,          0,     0.00,    3.21379,   -24.35
Line.LINE33,    29.1619,   -32.57,    31.8656,  -152.78,    31.6135,    88.49,          0,     0.00,    3.21379,   155.65,    29.1619,   147.43,    31.8656,    27.22,    31.6135,   -91.51,          0,     0.00,    3.21379,   -24.35
Line.LINE34,    29.1619,   -32.57,    31.8656,  -152.78,    31.6135,    88.49,          0,     0.00,    3.21379,   155.65,    29.1619,   147.43,    31.8656,    27.22,    31.6135,   -91.51,          0,     0.00,    3.21379,   -24.35
Line.LINE35, 9.70734E-011,  -102.99, 1.12953E-010,    14.93,    31.6135,    88.49,          0,     0.00,    31.6135,    88.49, 9.70734E-011,    77.01, 1.12953E-010,  -165.07,    31.6135,   -91.51,          0,     0.00,    31.6135,   -91.51
Line.LINE36, 1.09139E-010,   -53.13, 1.62695E-011,    63.43, 6.50781E-011,  -116.57,          0,     0.00, 1.38052E-010,   -71.57, 1.09139E-010,   126.87, 1.62695E-011,  -116.57, 6.50781E-011,    63.43,          0,     0.00, 1.38052E-010,   108.43
Line.LINE37, 1.44972E-010,   -72.47, 7.42005E-011,   168.69, 1.04935E-010,  -146.31,          0,     0.00, 2.15962E-010,  -122.62, 1.44972E-010,   107.53, 7.42005E-011,   -11.31, 1.04935E-010,    33.69,          0,     0.00, 2.15962E-010,    57.38
Line.LINE38, 1.51403E-010,   -54.78, 8.88144E-011,   145.01, 1.48401E-010,   101.31,          0,     0.00, 7.42005E-011,   101.31, 1.51403E-010,   125.22, 8.88144E-011,   -34.99, 1.48401E-010,   -78.69,          0,     0.00, 7.42005E-011,   -78.69
Line.LINE39, 1.12953E-010,   -14.93, 1.43504E-010,   149.53, 5.82077E-011,   -90.00,          0,     0.00, 2.05795E-011,  -135.00, 1.12953E-010,   165.07, 1.43504E-010,   -30.47, 5.82077E-011,    90.00,          0,     0.00, 2.05795E-011,    45.00
Line.LINE40, 7.73445E-011,   -41.19, 4.60172E-011,   -18.43, 9.20344E-011,   108.43,          0,     0.00, 7.59632E-011,    16.70, 7.73445E-011,   138.81, 4.60172E-011,   161.57, 9.20344E-011,   -71.57,          0,     0.00, 7.59632E-011,  -163.30
Load.LOAD1,    29.1383,   -32.52,    29.1383,   147.48,          0,     0.00,          0,     0.00,          0,     0.00,          0,     0.00,          0,     0.00,          0,     0.00,          0,     0.00,          0,     0.00
Load.LOAD2,    28.9876,   -32.38,    28.9876,   147.62,          0,     0.00,          0,     0.00,          0,     0.00,          0,     0.00,          0,     0.00,          0,     0.00,          0,     0.00,          0,     0.00
Load.LOAD3,     29.197,  -152.75,     29.197,    27.25,          0,     0.00,          0,     0.00,          0,     0.00,          0,     0.00,          0,     0.00,          0,     0.00,          0,     0.00,          0,     0.00
Load.LOAD4,     31.603,    88.50,     31.603,   -91.50,          0,     0.00,          0,     0.00,          0,     0.00,          0,     0.00,          0,     0.00,          0,     0.00,          0,     0.00,          0,     0.00
Load.LOAD5,    31.8663,  -152.77,    31.8663,    27.23,          0,     0.00,          0,     0.00,          0,     0.00,          0,     0.00,          0,     0.00,          0,     0.00,          0,     0.00,          0,     0.00
Load.LOAD6,    29.1623,   -32.57,    29.1623,   147.43,          0,     0.00,          0,     0.00,          0,     0.00,          0,     0.00,          0,     0.00,          0,     0.00,          0,     0.00,          0,     0.00
Load.LOAD7,    31.6135,    88.49,    31.6135,   -91.51,          0,     0.00,          0,     0.00,          0,     0.00,          0,     0.00,          0,     0.00,          0,     0.00,          0,     0.00,          0,     0.00
Load.LOAD8,    29.1527,  -152.67,    29.1527,    27.33,          0,     0.00,          0,     0.00,          0,     0.00,          0,     0.00,          0,     0.00,          0,     0.00,          0,     0.00,          0,     0.00
Load.LOAD9,    31.8178,  -152.69,    31.8178,    27.31,          0,     0.00,          0,     0.00,          0,     0.00,          0,     0.00,          0,     0.00,          0,     0.00,          0,     0.00,          0,     0.00
Load.LOAD10,    29.1549,   -32.55,    29.1549,   147.45,          0,     0.00,          0,     0.00,          0,     0.00,          0,     0.00,          0,     0.00,          0,     0.00,          0,     0.00,          0,     0.00
