Element, Terminal, P(kW), Q(kvar),  P_Normal, Q_Normal, P_Emergency, Q_Emergency
"Transformer.TR1"       ,   1,        69.2,         2.8,         0.0,         0.0,         0.0,         0.0
"Transformer.TR1"       ,   2,       -68.7,        -0.2
"Reactor.R1"            ,   1,        68.7,         0.2,        66.1,         0.2,        65.2,         0.2
"Reactor.R1"            ,   2,       -68.7,        -0.2
"Line.LINE1"            ,   1,        62.1,         0.2,         0.0,         0.0,         0.0,         0.0
"Line.LINE1"            ,   2,       -62.1,        -0.2
"Line.LINE2"            ,   1,        62.1,         0.2,         0.0,         0.0,         0.0,         0.0
"Line.LINE2"            ,   2,       -62.1,        -0.2
"Line.LINE3"            ,   1,        62.1,         0.2,         0.0,         0.0,         0.0,         0.0
"Line.LINE3"            ,   2,       -62.1,        -0.2
"Line.LINE4"            ,   1,        62.1,         0.2,         0.0,         0.0,         0.0,         0.0
"Line.LINE4"            ,   2,       -62.1,        -0.2
"Line.LINE5"            ,   1,        62.1,         0.2,         0.0,         0.0,         0.0,         0.0
"Line.LINE5"            ,   2,       -62.1,        -0.2
"Line.LINE6"            ,   1,        62.1,         0.2,         0.0,         0.0,         0.0,         0.0
"Line.LINE6"            ,   2,       -62.0,        -0.2
"Line.LINE7"            ,   1,        62.0,         0.2,         0.0,         0.0,         0.0,         0.0
"Line.LINE7"            ,   2,       -62.0,        -0.2
"Line.LINE8"            ,   1,        62.0,         0.2,         0.0,         0.0,         0.0,         0.0
"Line.LINE8"            ,   2,       -62.0,        -0.1
"Line.LINE9"            ,   1,        62.0,         0.1,         0.0,         0.0,         0.0,         0.0
"Line.LINE9"            ,   2,       -62.0,        -0.1
"Line.LINE10"           ,   1,        62.0,         0.1,         0.0,         0.0,         0.0,         0.0
"Line.LINE10"           ,   2,       -62.0,        -0.1
"Line.LINE11"           ,   1,        62.0,         0.1,         0.0,         0.0,         0.0,         0.0
"Line.LINE11"           ,   2,       -62.0,        -0.1
"Line.LINE12"           ,   1,        62.0,         0.1,         0.0,         0.0,         0.0,         0.0
"Line.LINE12"           ,   2,       -62.0,        -0.1
"Line.LINE13"           ,   1,        62.0,         0.1,         0.0,         0.0,         0.0,         0.0
"Line.LINE13"           ,   2,       -61.9,        -0.1
"Line.LINE14"           ,   1,        61.9,         0.1,         0.0,         0.0,         0.0,         0.0
"Line.LINE14"           ,   2,       -61.9,        -0.1
"Line.LINE15"           ,   1,        55.3,         0.1,         0.0,         0.0,         0.0,         0.0
"Line.LINE15"           ,   2,       -55.3,        -0.1
"Line.LINE16"           ,   1,        55.3,         0.1,         0.0,         0.0,         0.0,         0.0
"Line.LINE16"           ,   2,       -55.3,        -0.1
"Line.LINE17"           ,   1,        48.1,         0.1,         0.0,         0.0,         0.0,         0.0
"Line.LINE17"           ,   2,       -48.1,        -0.1
"Line.LINE18"           ,   1,        48.1,         0.1,         0.0,         0.0,         0.0,         0.0
"Line.LINE18"           ,   2,       -48.1,        -0.1
"Line.LINE19"           ,   1,        48.1,         0.1,         0.0,         0.0,         0.0,         0.0
"Line.LINE19"           ,   2,       -48.1,        -0.1
"Line.LINE20"           ,   1,        48.1,         0.1,         0.0,         0.0,         0.0,         0.0
"Line.LINE20"           ,   2,       -48.1,        -0.0
"Line.LINE21"           ,   1,        48.1,         0.0,         0.0,         0.0,         0.0,         0.0
"Line.LINE21"           ,   2,       -48.1,        -0.0
"Line.LINE22"           ,   1,        48.1,         0.0,         0.0,         0.0,         0.0,         0.0
"Line.LINE22"           ,   2,       -48.1,        -0.0
"Line.LINE23"           ,   1,        48.1,         0.0,         0.0,         0.0,         0.0,         0.0
"Line.LINE23"           ,   2,       -48.0,        -0.0
"Line.LINE24"           ,   1,        48.0,         0.0,         0.0,         0.0,         0.0,         0.0
"Line.LINE24"           ,   2,       -48.0,        -0.0
"Line.LINE25"           ,   1,        48.0,         0.0,         0.0,         0.0,         0.0,         0.0
"Line.LINE25"           ,   2,       -48.0,        -0.0
"Line.LINE26"           ,   1,        34.8,         0.0,         0.0,         0.0,         0.0,         0.0
"Line.LINE26"           ,   2,       -34.8,        -0.0
"Line.LINE27"           ,   1,        34.8,         0.0,         0.0,         0.0,         0.0,         0.0
"Line.LINE27"           ,   2,       -34.8,        -0.0
"Line.LINE28"           ,   1,        34.8,         0.0,         0.0,         0.0,         0.0,         0.0
"Line.LINE28"           ,   2,       -34.8,        -0.0
"Line.LINE29"           ,   1,        34.8,         0.0,         0.0,         0.0,         0.0,         0.0
"Line.LINE29"           ,   2,       -34.8,        -0.0
"Line.LINE30"           ,   1,        28.2,         0.0,         0.0,         0.0,         0.0,         0.0
"Line.LINE30"           ,   2,       -28.2,        -0.0
"Line.LINE31"           ,   1,        28.2,         0.0,         0.0,         0.0,         0.0,         0.0
"Line.LINE31"           ,   2,       -28.2,        -0.0
"Line.LINE32"           ,   1,        21.0,         0.0,         0.0,         0.0,         0.0,         0.0
"Line.LINE32"           ,   2,       -21.0,        -0.0
"Line.LINE33"           ,   1,        21.0,         0.0,         0.0,         0.0,         0.0,         0.0
"Line.LINE33"           ,   2,       -21.0,        -0.0
"Line.LINE34"           ,   1,        21.0,         0.0,         0.0,         0.0,         0.0,         0.0
"Line.LINE34"           ,   2,       -21.0,        -0.0
"Line.LINE35"           ,   1,         7.2,         0.0,         0.0,         0.0,         0.0,         0.0
"Line.LINE35"           ,   2,        -7.2,         0.0
"Line.LINE36"           ,   1,         0.0,         0.0,         0.0,         0.0,         0.0,         0.0
"Line.LINE36"           ,   2,        -0.0,        -0.0
"Line.LINE37"           ,   1,         0.0,         0.0,         0.0,         0.0,         0.0,         0.0
"Line.LINE37"           ,   2,        -0.0,        -0.0
"Line.LINE38"           ,   1,         0.0,         0.0,         0.0,         0.0,         0.0,         0.0
"Line.LINE38"           ,   2,        -0.0,        -0.0
"Line.LINE39"           ,   1,         0.0,         0.0,         0.0,         0.0,         0.0,         0.0
"Line.LINE39"           ,   2,        -0.0,        -0.0
"Line.LINE40"           ,   1,         0.0,        -0.0,         0.0,         0.0,         0.0,         0.0
"Line.LINE40"           ,   2,        -0.0,         0.0
"Load.LOAD1"            ,   1,         6.6,        -0.0
"Load.LOAD2"            ,   1,         6.6,        -0.0
"Load.LOAD3"            ,   1,         6.6,        -0.0
"Load.LOAD4"            ,   1,         7.2,        -0.0
"Load.LOAD5"            ,   1,         7.2,        -0.0
"Load.LOAD6"            ,   1,         6.6,        -0.0
"Load.LOAD7"            ,   1,         7.2,        -0.0
"Load.LOAD8"            ,   1,         6.6,        -0.0
"Load.LOAD9"            ,   1,         7.2,        -0.0
"Load.LOAD10"           ,   1,         6.6,        -0.0
